T0BF0 000:016.588   SEGGER J-Link V7.22b Log File
T0BF0 000:016.834   DLL Compiled: Jun 17 2021 17:22:49
T0BF0 000:016.864   Logging started @ 2022-01-17 12:09
T0BF0 000:016.892 - 16.906ms
T0BF0 000:016.925 JLINK_SetWarnOutHandler(...)
T0BF0 000:016.955 - 0.044ms
T0BF0 000:016.985 JLINK_OpenEx(...)
T0BF0 000:018.767   Firmware: J-Link V9 compiled May  7 2021 16:26:12
T0BF0 000:019.294   Firmware: J-Link V9 compiled May  7 2021 16:26:12
T0BF0 000:019.471   Decompressing FW timestamp took 115 us
T0BF0 000:026.179   Hardware: V9.60
T0BF0 000:026.238   S/N: 69668970
T0BF0 000:026.287   OEM: SEGGER
T0BF0 000:026.335   Feature(s): RDI, GDB, FlashDL, FlashBP, JFlash
T0BF0 000:027.346   TELNET listener socket opened on port 19021
T0BF0 000:027.479   WEBSRV Starting webserver
T0BF0 000:027.689   WEBSRV Webserver running on local port 19080
T0BF0 000:027.737 - 10.767ms returns "O.K."
T0BF0 000:027.776 JLINK_GetEmuCaps()
T0BF0 000:027.806 - 0.044ms returns 0xB9FF7BBF
T0BF0 000:027.840 JLINK_TIF_GetAvailable(...)
T0BF0 000:028.004 - 0.186ms
T0BF0 000:028.047 JLINK_SetErrorOutHandler(...)
T0BF0 000:028.112 - 0.079ms
T0BF0 000:028.171 JLINK_ExecCommand("ProjectFile = "F:\undergraduate course\@home\晓萌资料\比赛代码\各种晓萌代码\XM 2018.8.13比赛版代码\XMBOT_V4.0.0\KeilProject\JLinkSettings.ini"", ...). 
T0BF0 000:040.098 - 11.957ms returns 0x00
T0BF0 000:046.462 JLINK_ExecCommand("Device = STM32F405RG", ...). 
T0BF0 000:048.392   Device "STM32F405RG" selected.
T0BF0 000:049.424 - 2.920ms returns 0x00
T0BF0 000:049.473 JLINK_GetHardwareVersion()
T0BF0 000:049.504 - 0.045ms returns 96000
T0BF0 000:049.536 JLINK_GetDLLVersion()
T0BF0 000:049.566 - 0.044ms returns 72202
T0BF0 000:049.597 JLINK_GetOEMString(...)
T0BF0 000:049.629 JLINK_GetFirmwareString(...)
T0BF0 000:049.675 - 0.060ms
T0BF0 000:053.342 JLINK_GetDLLVersion()
T0BF0 000:053.379 - 0.051ms returns 72202
T0BF0 000:053.410 JLINK_GetCompileDateTime()
T0BF0 000:053.439 - 0.043ms
T0BF0 000:054.662 JLINK_GetFirmwareString(...)
T0BF0 000:054.697 - 0.049ms
T0BF0 000:055.917 JLINK_GetHardwareVersion()
T0BF0 000:055.952 - 0.049ms returns 96000
T0BF0 000:057.171 JLINK_GetSN()
T0BF0 000:057.206 - 0.049ms returns 69668970
T0BF0 000:058.426 JLINK_GetOEMString(...)
T0BF0 000:071.881 JLINK_TIF_Select(JLINKARM_TIF_SWD)
T0BF0 000:072.508 - 0.648ms returns 0x00
T0BF0 000:072.549 JLINK_HasError()
T0BF0 000:072.590 JLINK_SetSpeed(5000)
T0BF0 000:072.751 - 0.181ms
T0BF0 000:072.791 JLINK_GetId()
T0BF0 000:078.076   InitTarget() start
T0BF0 000:078.147    J-Link Script File: Executing InitTarget()
T0BF0 000:088.835   InitTarget() end
T0BF0 000:095.040   Found SW-DP with ID 0x2BA01477
T0BF0 000:101.784   DPIDR: 0x2BA01477
T0BF0 000:107.318   Scanning AP map to find all available APs
T0BF0 000:116.105   AP[1]: Stopped AP scan as end of AP map has been reached
T0BF0 000:120.006   AP[0]: AHB-AP (IDR: 0x24770011)
T0BF0 000:126.539   Iterating through AP map to find AHB-AP to use
T0BF0 000:131.373   AP[0]: Core found
T0BF0 000:134.503   AP[0]: AHB-AP ROM base: 0xE00FF000
T0BF0 000:139.421   CPUID register: 0x410FC241. Implementer code: 0x41 (ARM)
T0BF0 000:143.089   Found Cortex-M4 r0p1, Little endian.
T0BF0 000:244.347   -- Max. mem block: 0x00010C40
T0BF0 000:244.630   CPU_ReadMem(4 bytes @ 0xE000EDF0)
T0BF0 000:245.023   CPU_ReadMem(4 bytes @ 0xE0002000)
T0BF0 000:249.506   FPUnit: 6 code (BP) slots and 2 literal slots
T0BF0 000:249.561   CPU_ReadMem(4 bytes @ 0xE000EDFC)
T0BF0 000:249.917   CPU_WriteMem(4 bytes @ 0xE000EDFC)
T0BF0 000:250.340   CPU_ReadMem(4 bytes @ 0xE0001000)
T0BF0 000:250.709   CPU_WriteMem(4 bytes @ 0xE0001000)
T0BF0 000:251.119   CPU_ReadMem(4 bytes @ 0xE000ED88)
T0BF0 000:251.548   CPU_WriteMem(4 bytes @ 0xE000ED88)
T0BF0 000:251.887   CPU_ReadMem(4 bytes @ 0xE000ED88)
T0BF0 000:252.290   CPU_WriteMem(4 bytes @ 0xE000ED88)
T0BF0 000:255.907   CoreSight components:
T0BF0 000:262.312   ROMTbl[0] @ E00FF000
T0BF0 000:262.394   CPU_ReadMem(64 bytes @ 0xE00FF000)
T0BF0 000:262.949   CPU_ReadMem(32 bytes @ 0xE000EFE0)
T0BF0 000:267.780   ROMTbl[0][0]: E000E000, CID: B105E00D, PID: 000BB00C SCS-M7
T0BF0 000:267.843   CPU_ReadMem(32 bytes @ 0xE0001FE0)
T0BF0 000:271.489   ROMTbl[0][1]: E0001000, CID: B105E00D, PID: 003BB002 DWT
T0BF0 000:271.545   CPU_ReadMem(32 bytes @ 0xE0002FE0)
T0BF0 000:280.099   ROMTbl[0][2]: E0002000, CID: B105E00D, PID: 002BB003 FPB
T0BF0 000:280.180   CPU_ReadMem(32 bytes @ 0xE0000FE0)
T0BF0 000:284.022   ROMTbl[0][3]: E0000000, CID: B105E00D, PID: 003BB001 ITM
T0BF0 000:284.099   CPU_ReadMem(32 bytes @ 0xE0040FE0)
T0BF0 000:289.147   ROMTbl[0][4]: E0040000, CID: B105900D, PID: 000BB9A1 TPIU
T0BF0 000:289.211   CPU_ReadMem(32 bytes @ 0xE0041FE0)
T0BF0 000:293.578   ROMTbl[0][5]: E0041000, CID: B105900D, PID: 000BB925 ETM
T0BF0 000:294.008 - 221.258ms returns 0x2BA01477
T0BF0 000:294.083 JLINK_GetDLLVersion()
T0BF0 000:294.114 - 0.045ms returns 72202
T0BF0 000:294.146 JLINK_CORE_GetFound()
T0BF0 000:294.176 - 0.044ms returns 0xE0000FF
T0BF0 000:294.210 JLINK_GetDebugInfo(0x100 = JLINKARM_ROM_TABLE_ADDR_INDEX)
T0BF0 000:294.244   Value=0xE00FF000
T0BF0 000:294.287 - 0.092ms returns 0
T0BF0 000:299.010 JLINK_GetDebugInfo(0x100 = JLINKARM_ROM_TABLE_ADDR_INDEX)
T0BF0 000:299.056   Value=0xE00FF000
T0BF0 000:299.099 - 0.102ms returns 0
T0BF0 000:299.130 JLINK_GetDebugInfo(0x101 = JLINKARM_DEBUG_INFO_ETM_ADDR_INDEX)
T0BF0 000:299.159   Value=0xE0041000
T0BF0 000:299.201 - 0.090ms returns 0
T0BF0 000:299.243 JLINK_ReadMemEx(0xE0041FD0, 0x20 Bytes, Flags = 0x02000004)
T0BF0 000:299.292   CPU_ReadMem(32 bytes @ 0xE0041FD0)
T0BF0 000:300.061   Data:  04 00 00 00 00 00 00 00 00 00 00 00 00 00 00 00 ...
T0BF0 000:300.111 - 0.883ms returns 32 (0x20)
T0BF0 000:300.144 JLINK_GetDebugInfo(0x102 = JLINKARM_DEBUG_INFO_MTB_ADDR_INDEX)
T0BF0 000:300.173   Value=0x00000000
T0BF0 000:300.236 - 0.106ms returns 0
T0BF0 000:300.266 JLINK_GetDebugInfo(0x103 = JLINKARM_DEBUG_INFO_TPIU_ADDR_INDEX)
T0BF0 000:300.295   Value=0xE0040000
T0BF0 000:300.336 - 0.084ms returns 0
T0BF0 000:300.366 JLINK_GetDebugInfo(0x104 = JLINKARM_DEBUG_INFO_ITM_ADDR_INDEX)
T0BF0 000:300.394   Value=0xE0000000
T0BF0 000:300.435 - 0.083ms returns 0
T0BF0 000:300.465 JLINK_GetDebugInfo(0x105 = JLINKARM_DEBUG_INFO_DWT_ADDR_INDEX)
T0BF0 000:300.493   Value=0xE0001000
T0BF0 000:300.535 - 0.083ms returns 0
T0BF0 000:300.564 JLINK_GetDebugInfo(0x106 = JLINKARM_DEBUG_INFO_FPB_ADDR_INDEX)
T0BF0 000:300.592   Value=0xE0002000
T0BF0 000:300.634 - 0.083ms returns 0
T0BF0 000:300.663 JLINK_GetDebugInfo(0x107 = JLINKARM_DEBUG_INFO_NVIC_ADDR_INDEX)
T0BF0 000:300.692   Value=0xE000E000
T0BF0 000:300.733 - 0.083ms returns 0
T0BF0 000:300.762 JLINK_GetDebugInfo(0x10C = JLINKARM_DEBUG_INFO_DBG_ADDR_INDEX)
T0BF0 000:300.791   Value=0xE000EDF0
T0BF0 000:300.832 - 0.083ms returns 0
T0BF0 000:300.862 JLINK_GetDebugInfo(0x01 = Unknown)
T0BF0 000:300.890   Value=0x00000001
T0BF0 000:300.931 - 0.083ms returns 0
T0BF0 000:300.961 JLINK_ReadMemU32(0xE000ED00, 0x1 Items)
T0BF0 000:300.994   CPU_ReadMem(4 bytes @ 0xE000ED00)
T0BF0 000:301.421   Data:  41 C2 0F 41
T0BF0 000:301.476   Debug reg: CPUID
T0BF0 000:301.519 - 0.572ms returns 1 (0x1)
T0BF0 000:301.552 JLINK_GetDebugInfo(0x10F = JLINKARM_DEBUG_INFO_HAS_CORTEX_M_SECURITY_EXT_INDEX)
T0BF0 000:301.582   Value=0x00000000
T0BF0 000:301.626 - 0.087ms returns 0
T0BF0 000:301.657 JLINK_HasError()
T0BF0 000:301.688 JLINK_SetResetType(JLINKARM_CM3_RESET_TYPE_NORMAL)
T0BF0 000:301.718 - 0.044ms returns JLINKARM_CM3_RESET_TYPE_NORMAL
T0BF0 000:301.749 JLINK_Reset()
T0BF0 000:301.788   CPU is running
T0BF0 000:301.833   CPU_WriteMem(4 bytes @ 0xE000EDF0)
T0BF0 000:302.257   CPU is running
T0BF0 000:302.357   CPU_WriteMem(4 bytes @ 0xE000EDFC)
T0BF0 000:307.359   Reset: Halt core after reset via DEMCR.VC_CORERESET.
T0BF0 000:313.195   Reset: Reset device via AIRCR.SYSRESETREQ.
T0BF0 000:313.269   CPU is running
T0BF0 000:313.316   CPU_WriteMem(4 bytes @ 0xE000ED0C)
T0BF0 000:366.364   CPU_ReadMem(4 bytes @ 0xE000EDF0)
T0BF0 000:366.701   CPU_ReadMem(4 bytes @ 0xE000EDF0)
T0BF0 000:367.112   CPU is running
T0BF0 000:367.166   CPU_WriteMem(4 bytes @ 0xE000EDF0)
T0BF0 000:367.530   CPU is running
T0BF0 000:367.582   CPU_WriteMem(4 bytes @ 0xE000EDFC)
T0BF0 000:373.240   CPU_ReadMem(4 bytes @ 0xE000EDF0)
T0BF0 000:375.872   CPU_WriteMem(4 bytes @ 0xE0002000)
T0BF0 000:376.304   CPU_ReadMem(4 bytes @ 0xE000EDFC)
T0BF0 000:376.646   CPU_ReadMem(4 bytes @ 0xE0001000)
T0BF0 000:377.017 - 75.289ms
T0BF0 000:377.062 JLINK_Halt()
T0BF0 000:377.092 - 0.044ms returns 0x00
T0BF0 000:377.124 JLINK_ReadMemU32(0xE000EDF0, 0x1 Items)
T0BF0 000:377.159   CPU_ReadMem(4 bytes @ 0xE000EDF0)
T0BF0 000:377.552   Data:  03 00 03 00
T0BF0 000:377.603   Debug reg: DHCSR
T0BF0 000:377.647 - 0.538ms returns 1 (0x1)
T0BF0 000:377.685 JLINK_WriteU32_64(0xE000EDF0, 0xA05F0003)
T0BF0 000:378.532   Debug reg: DHCSR
T0BF0 000:379.419   CPU_WriteMem(4 bytes @ 0xE000EDF0)
T0BF0 000:379.740 - 2.077ms returns 0 (0x00000000)
T0BF0 000:379.784 JLINK_WriteU32_64(0xE000EDFC, 0x01000000)
T0BF0 000:379.814   Debug reg: DEMCR
T0BF0 000:379.863   CPU_WriteMem(4 bytes @ 0xE000EDFC)
T0BF0 000:380.210 - 0.446ms returns 0 (0x00000000)
T0BF0 000:397.969 JLINK_GetHWStatus(...)
T0BF0 000:398.279 - 0.333ms returns 0
T0BF0 000:411.637 JLINK_GetNumBPUnits(Type = 0xFFFFFF00)
T0BF0 000:411.707 - 0.085ms returns 0x06
T0BF0 000:411.738 JLINK_GetNumBPUnits(Type = 0xF0)
T0BF0 000:411.767 - 0.043ms returns 0x2000
T0BF0 000:411.797 JLINK_GetNumWPUnits()
T0BF0 000:411.826 - 0.042ms returns 4
T0BF0 000:422.055 JLINK_GetSpeed()
T0BF0 000:422.106 - 0.065ms returns 4000
T0BF0 000:432.375 JLINK_ReadMemU32(0xE000E004, 0x1 Items)
T0BF0 000:432.435   CPU_ReadMem(4 bytes @ 0xE000E004)
T0BF0 000:432.873   Data:  02 00 00 00
T0BF0 000:432.924 - 0.564ms returns 1 (0x1)
T0BF0 000:432.958 JLINK_ReadMemU32(0xE000E004, 0x1 Items)
T0BF0 000:432.992   CPU_ReadMem(4 bytes @ 0xE000E004)
T0BF0 000:433.394   Data:  02 00 00 00
T0BF0 000:433.445 - 0.501ms returns 1 (0x1)
T0BF0 000:433.478 JLINK_WriteMemEx(0xE0001000, 0x0000001C Bytes, Flags = 0x02000004)
T0BF0 000:433.509   Data:  01 00 00 00 00 00 00 00 00 00 00 00 00 00 00 00 ...
T0BF0 000:433.560   CPU_WriteMem(28 bytes @ 0xE0001000)
T0BF0 000:434.350 - 0.893ms returns 0x1C
T0BF0 000:434.394 JLINK_Halt()
T0BF0 000:434.424 - 0.044ms returns 0x00
T0BF0 000:434.455 JLINK_IsHalted()
T0BF0 000:434.485 - 0.045ms returns TRUE
T0BF0 000:563.472 JLINK_WriteMem(0x20000000, 0x180 Bytes, ...)
T0BF0 000:563.515   Data:  00 BE 0A E0 0D 78 2D 06 68 40 08 24 40 00 00 D3 ...
T0BF0 000:563.803   CPU_WriteMem(384 bytes @ 0x20000000)
T0BF0 000:566.009 - 2.577ms returns 0x180
T0BF0 000:566.108 JLINK_HasError()
T0BF0 000:566.144 JLINK_WriteReg(R0, 0x08000000)
T0BF0 000:566.177 - 0.048ms returns 0
T0BF0 000:566.210 JLINK_WriteReg(R1, 0x007A1200)
T0BF0 000:566.241 - 0.045ms returns 0
T0BF0 000:566.272 JLINK_WriteReg(R2, 0x00000001)
T0BF0 000:566.301 - 0.043ms returns 0
T0BF0 000:566.332 JLINK_WriteReg(R3, 0x00000000)
T0BF0 000:566.363 - 0.046ms returns 0
T0BF0 000:566.396 JLINK_WriteReg(R4, 0x00000000)
T0BF0 000:566.427 - 0.045ms returns 0
T0BF0 000:566.459 JLINK_WriteReg(R5, 0x00000000)
T0BF0 000:566.489 - 0.046ms returns 0
T0BF0 000:566.522 JLINK_WriteReg(R6, 0x00000000)
T0BF0 000:566.552 - 0.045ms returns 0
T0BF0 000:566.586 JLINK_WriteReg(R7, 0x00000000)
T0BF0 000:566.616 - 0.044ms returns 0
T0BF0 000:566.647 JLINK_WriteReg(R8, 0x00000000)
T0BF0 000:567.737 - 1.107ms returns 0
T0BF0 000:567.775 JLINK_WriteReg(R9, 0x2000017C)
T0BF0 000:567.804 - 0.044ms returns 0
T0BF0 000:567.836 JLINK_WriteReg(R10, 0x00000000)
T0BF0 000:567.865 - 0.044ms returns 0
T0BF0 000:567.896 JLINK_WriteReg(R11, 0x00000000)
T0BF0 000:567.926 - 0.044ms returns 0
T0BF0 000:567.957 JLINK_WriteReg(R12, 0x00000000)
T0BF0 000:567.986 - 0.044ms returns 0
T0BF0 000:568.017 JLINK_WriteReg(R13 (SP), 0x20001000)
T0BF0 000:568.047 - 0.044ms returns 0
T0BF0 000:568.078 JLINK_WriteReg(R14, 0x20000001)
T0BF0 000:568.107 - 0.044ms returns 0
T0BF0 000:568.138 JLINK_WriteReg(R15 (PC), 0x20000054)
T0BF0 000:568.176 - 0.056ms returns 0
T0BF0 000:568.211 JLINK_WriteReg(XPSR, 0x01000000)
T0BF0 000:568.240 - 0.043ms returns 0
T0BF0 000:568.270 JLINK_WriteReg(MSP, 0x20001000)
T0BF0 000:568.299 - 0.042ms returns 0
T0BF0 000:568.328 JLINK_WriteReg(PSP, 0x20001000)
T0BF0 000:568.357 - 0.042ms returns 0
T0BF0 000:568.386 JLINK_WriteReg(CFBP, 0x00000000)
T0BF0 000:568.415 - 0.042ms returns 0
T0BF0 000:568.445 JLINK_SetBPEx(Addr = 0x20000000, Type = 0xFFFFFFF2)
T0BF0 000:568.482   CPU_ReadMem(2 bytes @ 0x20000000)
T0BF0 000:568.828 - 0.404ms returns 0x00000001
T0BF0 000:568.868 JLINK_Go()
T0BF0 000:568.902   CPU_WriteMem(2 bytes @ 0x20000000)
T0BF0 000:569.287   CPU_ReadMem(4 bytes @ 0xE0001000)
T0BF0 000:569.668   CPU_WriteMem(4 bytes @ 0xE0002008)
T0BF0 000:569.719   CPU_WriteMem(4 bytes @ 0xE000200C)
T0BF0 000:569.764   CPU_WriteMem(4 bytes @ 0xE0002010)
T0BF0 000:569.808   CPU_WriteMem(4 bytes @ 0xE0002014)
T0BF0 000:569.851   CPU_WriteMem(4 bytes @ 0xE0002018)
T0BF0 000:569.894   CPU_WriteMem(4 bytes @ 0xE000201C)
T0BF0 000:571.315   CPU_WriteMem(4 bytes @ 0xE0001004)
T0BF0 000:574.255 - 5.414ms
T0BF0 000:574.304 JLINK_IsHalted()
T0BF0 000:576.466   CPU_ReadMem(2 bytes @ 0x20000000)
T0BF0 000:576.839 - 2.556ms returns TRUE
T0BF0 000:576.881 JLINK_ReadReg(R15 (PC))
T0BF0 000:576.914 - 0.048ms returns 0x20000000
T0BF0 000:576.945 JLINK_ClrBPEx(BPHandle = 0x00000001)
T0BF0 000:576.976 - 0.045ms returns 0x00
T0BF0 000:577.007 JLINK_ReadReg(R0)
T0BF0 000:577.037 - 0.044ms returns 0x00000000
T0BF0 000:577.908 JLINK_HasError()
T0BF0 000:577.949 JLINK_WriteReg(R0, 0x08000000)
T0BF0 000:577.981 - 0.046ms returns 0
T0BF0 000:578.012 JLINK_WriteReg(R1, 0x00004000)
T0BF0 000:578.041 - 0.043ms returns 0
T0BF0 000:578.072 JLINK_WriteReg(R2, 0x000000FF)
T0BF0 000:578.101 - 0.043ms returns 0
T0BF0 000:578.132 JLINK_WriteReg(R3, 0x00000000)
T0BF0 000:578.161 - 0.043ms returns 0
T0BF0 000:578.191 JLINK_WriteReg(R4, 0x00000000)
T0BF0 000:578.221 - 0.044ms returns 0
T0BF0 000:578.251 JLINK_WriteReg(R5, 0x00000000)
T0BF0 000:578.280 - 0.042ms returns 0
T0BF0 000:578.310 JLINK_WriteReg(R6, 0x00000000)
T0BF0 000:578.339 - 0.043ms returns 0
T0BF0 000:578.369 JLINK_WriteReg(R7, 0x00000000)
T0BF0 000:578.398 - 0.043ms returns 0
T0BF0 000:578.428 JLINK_WriteReg(R8, 0x00000000)
T0BF0 000:578.457 - 0.043ms returns 0
T0BF0 000:578.487 JLINK_WriteReg(R9, 0x2000017C)
T0BF0 000:578.516 - 0.043ms returns 0
T0BF0 000:578.546 JLINK_WriteReg(R10, 0x00000000)
T0BF0 000:578.575 - 0.043ms returns 0
T0BF0 000:578.605 JLINK_WriteReg(R11, 0x00000000)
T0BF0 000:578.633 - 0.043ms returns 0
T0BF0 000:578.663 JLINK_WriteReg(R12, 0x00000000)
T0BF0 000:578.692 - 0.043ms returns 0
T0BF0 000:578.722 JLINK_WriteReg(R13 (SP), 0x20001000)
T0BF0 000:578.751 - 0.043ms returns 0
T0BF0 000:578.782 JLINK_WriteReg(R14, 0x20000001)
T0BF0 000:578.810 - 0.043ms returns 0
T0BF0 000:578.840 JLINK_WriteReg(R15 (PC), 0x20000020)
T0BF0 000:578.869 - 0.043ms returns 0
T0BF0 000:578.899 JLINK_WriteReg(XPSR, 0x01000000)
T0BF0 000:578.929 - 0.044ms returns 0
T0BF0 000:578.959 JLINK_WriteReg(MSP, 0x20001000)
T0BF0 000:578.989 - 0.043ms returns 0
T0BF0 000:579.019 JLINK_WriteReg(PSP, 0x20001000)
T0BF0 000:579.049 - 0.043ms returns 0
T0BF0 000:579.079 JLINK_WriteReg(CFBP, 0x00000000)
T0BF0 000:579.108 - 0.043ms returns 0
T0BF0 000:579.140 JLINK_SetBPEx(Addr = 0x20000000, Type = 0xFFFFFFF2)
T0BF0 000:579.170 - 0.044ms returns 0x00000002
T0BF0 000:579.201 JLINK_Go()
T0BF0 000:579.237   CPU_ReadMem(4 bytes @ 0xE0001000)
T0BF0 000:581.748 - 2.570ms
T0BF0 000:581.791 JLINK_IsHalted()
T0BF0 000:582.123 - 0.353ms returns FALSE
T0BF0 000:582.163 JLINK_HasError()
T0BF0 000:595.649 JLINK_IsHalted()
T0BF0 000:597.828   CPU_ReadMem(2 bytes @ 0x20000000)
T0BF0 000:598.303 - 2.679ms returns TRUE
T0BF0 000:598.349 JLINK_ReadReg(R15 (PC))
T0BF0 000:598.382 - 0.048ms returns 0x20000000
T0BF0 000:598.414 JLINK_ClrBPEx(BPHandle = 0x00000002)
T0BF0 000:598.444 - 0.045ms returns 0x00
T0BF0 000:598.476 JLINK_ReadReg(R0)
T0BF0 000:598.506 - 0.101ms returns 0x00000000
T0BF0 000:599.186 JLINK_HasError()
T0BF0 000:599.231 JLINK_WriteReg(R0, 0x08004000)
T0BF0 000:599.263 - 0.047ms returns 0
T0BF0 000:599.294 JLINK_WriteReg(R1, 0x00004000)
T0BF0 000:599.323 - 0.043ms returns 0
T0BF0 000:599.353 JLINK_WriteReg(R2, 0x000000FF)
T0BF0 000:599.381 - 0.042ms returns 0
T0BF0 000:599.411 JLINK_WriteReg(R3, 0x00000000)
T0BF0 000:599.439 - 0.042ms returns 0
T0BF0 000:599.469 JLINK_WriteReg(R4, 0x00000000)
T0BF0 000:599.498 - 0.042ms returns 0
T0BF0 000:599.527 JLINK_WriteReg(R5, 0x00000000)
T0BF0 000:599.556 - 0.042ms returns 0
T0BF0 000:599.586 JLINK_WriteReg(R6, 0x00000000)
T0BF0 000:599.614 - 0.042ms returns 0
T0BF0 000:599.644 JLINK_WriteReg(R7, 0x00000000)
T0BF0 000:599.672 - 0.042ms returns 0
T0BF0 000:599.702 JLINK_WriteReg(R8, 0x00000000)
T0BF0 000:599.731 - 0.042ms returns 0
T0BF0 000:599.760 JLINK_WriteReg(R9, 0x2000017C)
T0BF0 000:599.789 - 0.042ms returns 0
T0BF0 000:599.819 JLINK_WriteReg(R10, 0x00000000)
T0BF0 000:599.847 - 0.042ms returns 0
T0BF0 000:599.877 JLINK_WriteReg(R11, 0x00000000)
T0BF0 000:599.905 - 0.042ms returns 0
T0BF0 000:599.935 JLINK_WriteReg(R12, 0x00000000)
T0BF0 000:599.964 - 0.042ms returns 0
T0BF0 000:599.994 JLINK_WriteReg(R13 (SP), 0x20001000)
T0BF0 000:600.023 - 0.043ms returns 0
T0BF0 000:600.052 JLINK_WriteReg(R14, 0x20000001)
T0BF0 000:600.081 - 0.042ms returns 0
T0BF0 000:600.112 JLINK_WriteReg(R15 (PC), 0x20000020)
T0BF0 000:600.155 - 0.057ms returns 0
T0BF0 000:600.185 JLINK_WriteReg(XPSR, 0x01000000)
T0BF0 000:600.214 - 0.042ms returns 0
T0BF0 000:600.243 JLINK_WriteReg(MSP, 0x20001000)
T0BF0 000:600.272 - 0.042ms returns 0
T0BF0 000:600.301 JLINK_WriteReg(PSP, 0x20001000)
T0BF0 000:600.330 - 0.042ms returns 0
T0BF0 000:600.360 JLINK_WriteReg(CFBP, 0x00000000)
T0BF0 000:600.388 - 0.042ms returns 0
T0BF0 000:600.418 JLINK_SetBPEx(Addr = 0x20000000, Type = 0xFFFFFFF2)
T0BF0 000:600.448 - 0.044ms returns 0x00000003
T0BF0 000:600.478 JLINK_Go()
T0BF0 000:600.514   CPU_ReadMem(4 bytes @ 0xE0001000)
T0BF0 000:603.115 - 2.664ms
T0BF0 000:603.162 JLINK_IsHalted()
T0BF0 000:603.566 - 0.431ms returns FALSE
T0BF0 000:603.615 JLINK_HasError()
T0BF0 000:605.785 JLINK_IsHalted()
T0BF0 000:606.230 - 0.473ms returns FALSE
T0BF0 000:606.279 JLINK_HasError()
T0BF0 000:607.797 JLINK_IsHalted()
T0BF0 000:608.181 - 0.405ms returns FALSE
T0BF0 000:608.222 JLINK_HasError()
T0BF0 000:610.226 JLINK_IsHalted()
T0BF0 000:610.611 - 0.410ms returns FALSE
T0BF0 000:610.656 JLINK_HasError()
T0BF0 000:612.769 JLINK_IsHalted()
T0BF0 000:613.172 - 0.431ms returns FALSE
T0BF0 000:613.222 JLINK_HasError()
T0BF0 000:614.741 JLINK_IsHalted()
T0BF0 000:615.135 - 0.417ms returns FALSE
T0BF0 000:615.178 JLINK_HasError()
T0BF0 000:616.804 JLINK_IsHalted()
T0BF0 000:617.188 - 0.406ms returns FALSE
T0BF0 000:617.236 JLINK_HasError()
T0BF0 000:618.757 JLINK_IsHalted()
T0BF0 000:620.884   CPU_ReadMem(2 bytes @ 0x20000000)
T0BF0 000:621.362 - 2.634ms returns TRUE
T0BF0 000:621.413 JLINK_ReadReg(R15 (PC))
T0BF0 000:621.448 - 0.050ms returns 0x20000000
T0BF0 000:621.481 JLINK_ClrBPEx(BPHandle = 0x00000003)
T0BF0 000:621.511 - 0.045ms returns 0x00
T0BF0 000:621.543 JLINK_ReadReg(R0)
T0BF0 000:621.573 - 0.045ms returns 0x00000000
T0BF0 000:623.218 JLINK_HasError()
T0BF0 000:623.259 JLINK_WriteReg(R0, 0x00000001)
T0BF0 000:623.291 - 0.046ms returns 0
T0BF0 000:623.321 JLINK_WriteReg(R1, 0x00004000)
T0BF0 000:623.350 - 0.043ms returns 0
T0BF0 000:623.380 JLINK_WriteReg(R2, 0x000000FF)
T0BF0 000:623.409 - 0.042ms returns 0
T0BF0 000:623.439 JLINK_WriteReg(R3, 0x00000000)
T0BF0 000:623.467 - 0.042ms returns 0
T0BF0 000:623.497 JLINK_WriteReg(R4, 0x00000000)
T0BF0 000:623.526 - 0.042ms returns 0
T0BF0 000:623.555 JLINK_WriteReg(R5, 0x00000000)
T0BF0 000:623.584 - 0.042ms returns 0
T0BF0 000:623.613 JLINK_WriteReg(R6, 0x00000000)
T0BF0 000:623.642 - 0.042ms returns 0
T0BF0 000:623.671 JLINK_WriteReg(R7, 0x00000000)
T0BF0 000:623.700 - 0.042ms returns 0
T0BF0 000:623.730 JLINK_WriteReg(R8, 0x00000000)
T0BF0 000:623.762 - 0.048ms returns 0
T0BF0 000:623.794 JLINK_WriteReg(R9, 0x2000017C)
T0BF0 000:623.823 - 0.042ms returns 0
T0BF0 000:623.852 JLINK_WriteReg(R10, 0x00000000)
T0BF0 000:623.916 - 0.093ms returns 0
T0BF0 000:623.975 JLINK_WriteReg(R11, 0x00000000)
T0BF0 000:624.039 - 0.097ms returns 0
T0BF0 000:624.089 JLINK_WriteReg(R12, 0x00000000)
T0BF0 000:624.135 - 0.060ms returns 0
T0BF0 000:624.165 JLINK_WriteReg(R13 (SP), 0x20001000)
T0BF0 000:624.194 - 0.043ms returns 0
T0BF0 000:624.225 JLINK_WriteReg(R14, 0x20000001)
T0BF0 000:624.253 - 0.042ms returns 0
T0BF0 000:624.283 JLINK_WriteReg(R15 (PC), 0x20000082)
T0BF0 000:624.312 - 0.042ms returns 0
T0BF0 000:624.342 JLINK_WriteReg(XPSR, 0x01000000)
T0BF0 000:624.393 - 0.065ms returns 0
T0BF0 000:624.424 JLINK_WriteReg(MSP, 0x20001000)
T0BF0 000:624.453 - 0.044ms returns 0
T0BF0 000:624.499 JLINK_WriteReg(PSP, 0x20001000)
T0BF0 000:624.528 - 0.043ms returns 0
T0BF0 000:624.559 JLINK_WriteReg(CFBP, 0x00000000)
T0BF0 000:624.588 - 0.043ms returns 0
T0BF0 000:624.618 JLINK_SetBPEx(Addr = 0x20000000, Type = 0xFFFFFFF2)
T0BF0 000:624.648 - 0.044ms returns 0x00000004
T0BF0 000:624.679 JLINK_Go()
T0BF0 000:624.717   CPU_ReadMem(4 bytes @ 0xE0001000)
T0BF0 000:626.965 - 2.335ms
T0BF0 000:627.036 JLINK_IsHalted()
T0BF0 000:628.836   CPU_ReadMem(2 bytes @ 0x20000000)
T0BF0 000:629.109 - 2.092ms returns TRUE
T0BF0 000:629.148 JLINK_ReadReg(R15 (PC))
T0BF0 000:629.180 - 0.046ms returns 0x20000000
T0BF0 000:629.211 JLINK_ClrBPEx(BPHandle = 0x00000004)
T0BF0 000:629.241 - 0.044ms returns 0x00
T0BF0 000:629.273 JLINK_ReadReg(R0)
T0BF0 000:629.302 - 0.044ms returns 0x00000000
T0BF0 000:689.008 JLINK_WriteMem(0x20000000, 0x180 Bytes, ...)
T0BF0 000:689.052   Data:  00 BE 0A E0 0D 78 2D 06 68 40 08 24 40 00 00 D3 ...
T0BF0 000:689.107   CPU_WriteMem(384 bytes @ 0x20000000)
T0BF0 000:691.023 - 2.039ms returns 0x180
T0BF0 000:691.090 JLINK_HasError()
T0BF0 000:691.126 JLINK_WriteReg(R0, 0x08000000)
T0BF0 000:691.161 - 0.050ms returns 0
T0BF0 000:691.193 JLINK_WriteReg(R1, 0x007A1200)
T0BF0 000:691.224 - 0.045ms returns 0
T0BF0 000:691.255 JLINK_WriteReg(R2, 0x00000002)
T0BF0 000:691.286 - 0.045ms returns 0
T0BF0 000:691.318 JLINK_WriteReg(R3, 0x00000000)
T0BF0 000:691.348 - 0.045ms returns 0
T0BF0 000:691.381 JLINK_WriteReg(R4, 0x00000000)
T0BF0 000:691.413 - 0.047ms returns 0
T0BF0 000:691.447 JLINK_WriteReg(R5, 0x00000000)
T0BF0 000:691.478 - 0.046ms returns 0
T0BF0 000:691.510 JLINK_WriteReg(R6, 0x00000000)
T0BF0 000:691.540 - 0.045ms returns 0
T0BF0 000:691.572 JLINK_WriteReg(R7, 0x00000000)
T0BF0 000:691.602 - 0.045ms returns 0
T0BF0 000:691.634 JLINK_WriteReg(R8, 0x00000000)
T0BF0 000:691.665 - 0.046ms returns 0
T0BF0 000:691.697 JLINK_WriteReg(R9, 0x2000017C)
T0BF0 000:691.728 - 0.045ms returns 0
T0BF0 000:691.761 JLINK_WriteReg(R10, 0x00000000)
T0BF0 000:691.791 - 0.045ms returns 0
T0BF0 000:691.822 JLINK_WriteReg(R11, 0x00000000)
T0BF0 000:691.852 - 0.044ms returns 0
T0BF0 000:691.883 JLINK_WriteReg(R12, 0x00000000)
T0BF0 000:691.913 - 0.045ms returns 0
T0BF0 000:691.945 JLINK_WriteReg(R13 (SP), 0x20001000)
T0BF0 000:691.976 - 0.045ms returns 0
T0BF0 000:692.007 JLINK_WriteReg(R14, 0x20000001)
T0BF0 000:692.037 - 0.044ms returns 0
T0BF0 000:692.068 JLINK_WriteReg(R15 (PC), 0x20000054)
T0BF0 000:692.098 - 0.044ms returns 0
T0BF0 000:692.129 JLINK_WriteReg(XPSR, 0x01000000)
T0BF0 000:692.162 - 0.047ms returns 0
T0BF0 000:692.193 JLINK_WriteReg(MSP, 0x20001000)
T0BF0 000:692.224 - 0.045ms returns 0
T0BF0 000:692.256 JLINK_WriteReg(PSP, 0x20001000)
T0BF0 000:692.287 - 0.046ms returns 0
T0BF0 000:692.319 JLINK_WriteReg(CFBP, 0x00000000)
T0BF0 000:692.348 - 0.044ms returns 0
T0BF0 000:692.379 JLINK_SetBPEx(Addr = 0x20000000, Type = 0xFFFFFFF2)
T0BF0 000:692.414   CPU_ReadMem(2 bytes @ 0x20000000)
T0BF0 000:692.820 - 0.468ms returns 0x00000005
T0BF0 000:692.867 JLINK_Go()
T0BF0 000:692.911   CPU_WriteMem(2 bytes @ 0x20000000)
T0BF0 000:693.310   CPU_ReadMem(4 bytes @ 0xE0001000)
T0BF0 000:695.757 - 2.923ms
T0BF0 000:695.813 JLINK_IsHalted()
T0BF0 000:698.274   CPU_ReadMem(2 bytes @ 0x20000000)
T0BF0 000:698.651 - 2.862ms returns TRUE
T0BF0 000:698.696 JLINK_ReadReg(R15 (PC))
T0BF0 000:698.733 - 0.052ms returns 0x20000000
T0BF0 000:698.766 JLINK_ClrBPEx(BPHandle = 0x00000005)
T0BF0 000:698.797 - 0.046ms returns 0x00
T0BF0 000:698.830 JLINK_ReadReg(R0)
T0BF0 000:698.860 - 0.045ms returns 0x00000000
T0BF0 000:699.191 JLINK_WriteMem(0x20000180, 0x280 Bytes, ...)
T0BF0 000:699.229   Data:  58 0D 00 20 2D 02 00 08 35 02 00 08 D5 0E 00 08 ...
T0BF0 000:699.281   CPU_WriteMem(640 bytes @ 0x20000180)
T0BF0 000:702.328 - 3.180ms returns 0x280
T0BF0 000:702.395 JLINK_WriteMem(0x20000400, 0x180 Bytes, ...)
T0BF0 000:702.427   Data:  02 0F 62 44 98 BF 11 F8 01 CB 00 F8 01 3B 38 BF ...
T0BF0 000:702.486   CPU_WriteMem(384 bytes @ 0x20000400)
T0BF0 000:704.676 - 2.324ms returns 0x180
T0BF0 000:704.766 JLINK_HasError()
T0BF0 000:704.800 JLINK_WriteReg(R0, 0x08000000)
T0BF0 000:704.836 - 0.050ms returns 0
T0BF0 000:704.868 JLINK_WriteReg(R1, 0x00000400)
T0BF0 000:704.899 - 0.045ms returns 0
T0BF0 000:704.930 JLINK_WriteReg(R2, 0x20000180)
T0BF0 000:704.960 - 0.044ms returns 0
T0BF0 000:704.992 JLINK_WriteReg(R3, 0x00000000)
T0BF0 000:705.022 - 0.045ms returns 0
T0BF0 000:705.054 JLINK_WriteReg(R4, 0x00000000)
T0BF0 000:705.084 - 0.045ms returns 0
T0BF0 000:705.116 JLINK_WriteReg(R5, 0x00000000)
T0BF0 000:705.146 - 0.045ms returns 0
T0BF0 000:705.178 JLINK_WriteReg(R6, 0x00000000)
T0BF0 000:705.207 - 0.045ms returns 0
T0BF0 000:705.239 JLINK_WriteReg(R7, 0x00000000)
T0BF0 000:705.269 - 0.045ms returns 0
T0BF0 000:705.301 JLINK_WriteReg(R8, 0x00000000)
T0BF0 000:705.331 - 0.045ms returns 0
T0BF0 000:705.363 JLINK_WriteReg(R9, 0x2000017C)
T0BF0 000:705.393 - 0.045ms returns 0
T0BF0 000:705.424 JLINK_WriteReg(R10, 0x00000000)
T0BF0 000:705.454 - 0.045ms returns 0
T0BF0 000:705.485 JLINK_WriteReg(R11, 0x00000000)
T0BF0 000:705.516 - 0.045ms returns 0
T0BF0 000:705.547 JLINK_WriteReg(R12, 0x00000000)
T0BF0 000:705.577 - 0.044ms returns 0
T0BF0 000:705.609 JLINK_WriteReg(R13 (SP), 0x20001000)
T0BF0 000:705.640 - 0.046ms returns 0
T0BF0 000:705.671 JLINK_WriteReg(R14, 0x20000001)
T0BF0 000:705.702 - 0.045ms returns 0
T0BF0 000:705.733 JLINK_WriteReg(R15 (PC), 0x20000108)
T0BF0 000:705.764 - 0.046ms returns 0
T0BF0 000:705.796 JLINK_WriteReg(XPSR, 0x01000000)
T0BF0 000:705.826 - 0.045ms returns 0
T0BF0 000:705.857 JLINK_WriteReg(MSP, 0x20001000)
T0BF0 000:705.888 - 0.045ms returns 0
T0BF0 000:705.919 JLINK_WriteReg(PSP, 0x20001000)
T0BF0 000:705.950 - 0.046ms returns 0
T0BF0 000:705.983 JLINK_WriteReg(CFBP, 0x00000000)
T0BF0 000:706.014 - 0.046ms returns 0
T0BF0 000:706.047 JLINK_SetBPEx(Addr = 0x20000000, Type = 0xFFFFFFF2)
T0BF0 000:706.079 - 0.047ms returns 0x00000006
T0BF0 000:706.111 JLINK_Go()
T0BF0 000:706.150   CPU_ReadMem(4 bytes @ 0xE0001000)
T0BF0 000:708.850 - 2.779ms
T0BF0 000:708.913 JLINK_IsHalted()
T0BF0 000:709.336 - 0.445ms returns FALSE
T0BF0 000:709.379 JLINK_HasError()
T0BF0 000:714.979 JLINK_IsHalted()
T0BF0 000:717.038   CPU_ReadMem(2 bytes @ 0x20000000)
T0BF0 000:717.371 - 2.412ms returns TRUE
T0BF0 000:717.411 JLINK_ReadReg(R15 (PC))
T0BF0 000:717.443 - 0.047ms returns 0x20000000
T0BF0 000:717.476 JLINK_ClrBPEx(BPHandle = 0x00000006)
T0BF0 000:717.507 - 0.046ms returns 0x00
T0BF0 000:717.539 JLINK_ReadReg(R0)
T0BF0 000:717.570 - 0.045ms returns 0x00000000
T0BF0 000:718.052 JLINK_WriteMem(0x20000180, 0x280 Bytes, ...)
T0BF0 000:718.088   Data:  28 BF A0 E8 0C 50 48 BF 0C C0 5D F8 04 EB 89 00 ...
T0BF0 000:718.139   CPU_WriteMem(640 bytes @ 0x20000180)
T0BF0 000:721.333 - 3.323ms returns 0x280
T0BF0 000:721.399 JLINK_WriteMem(0x20000400, 0x180 Bytes, ...)
T0BF0 000:721.431   Data:  BD F8 0D 10 41 81 FF 20 8F 49 81 F8 3C 00 9D F8 ...
T0BF0 000:721.489   CPU_WriteMem(384 bytes @ 0x20000400)
T0BF0 000:723.719 - 2.362ms returns 0x180
T0BF0 000:723.785 JLINK_HasError()
T0BF0 000:723.820 JLINK_WriteReg(R0, 0x08000400)
T0BF0 000:723.862 - 0.060ms returns 0
T0BF0 000:723.898 JLINK_WriteReg(R1, 0x00000400)
T0BF0 000:723.929 - 0.046ms returns 0
T0BF0 000:723.960 JLINK_WriteReg(R2, 0x20000180)
T0BF0 000:723.989 - 0.043ms returns 0
T0BF0 000:724.020 JLINK_WriteReg(R3, 0x00000000)
T0BF0 000:724.050 - 0.044ms returns 0
T0BF0 000:724.081 JLINK_WriteReg(R4, 0x00000000)
T0BF0 000:724.110 - 0.044ms returns 0
T0BF0 000:724.141 JLINK_WriteReg(R5, 0x00000000)
T0BF0 000:724.170 - 0.043ms returns 0
T0BF0 000:724.200 JLINK_WriteReg(R6, 0x00000000)
T0BF0 000:724.230 - 0.043ms returns 0
T0BF0 000:724.260 JLINK_WriteReg(R7, 0x00000000)
T0BF0 000:724.289 - 0.043ms returns 0
T0BF0 000:724.322 JLINK_WriteReg(R8, 0x00000000)
T0BF0 000:724.352 - 0.043ms returns 0
T0BF0 000:724.382 JLINK_WriteReg(R9, 0x2000017C)
T0BF0 000:724.411 - 0.043ms returns 0
T0BF0 000:724.442 JLINK_WriteReg(R10, 0x00000000)
T0BF0 000:724.471 - 0.043ms returns 0
T0BF0 000:724.501 JLINK_WriteReg(R11, 0x00000000)
T0BF0 000:724.531 - 0.043ms returns 0
T0BF0 000:724.561 JLINK_WriteReg(R12, 0x00000000)
T0BF0 000:724.590 - 0.043ms returns 0
T0BF0 000:724.621 JLINK_WriteReg(R13 (SP), 0x20001000)
T0BF0 000:724.651 - 0.044ms returns 0
T0BF0 000:724.682 JLINK_WriteReg(R14, 0x20000001)
T0BF0 000:724.711 - 0.043ms returns 0
T0BF0 000:724.742 JLINK_WriteReg(R15 (PC), 0x20000108)
T0BF0 000:724.771 - 0.044ms returns 0
T0BF0 000:724.802 JLINK_WriteReg(XPSR, 0x01000000)
T0BF0 000:724.833 - 0.046ms returns 0
T0BF0 000:724.866 JLINK_WriteReg(MSP, 0x20001000)
T0BF0 000:724.896 - 0.044ms returns 0
T0BF0 000:724.928 JLINK_WriteReg(PSP, 0x20001000)
T0BF0 000:724.958 - 0.044ms returns 0
T0BF0 000:724.989 JLINK_WriteReg(CFBP, 0x00000000)
T0BF0 000:725.019 - 0.045ms returns 0
T0BF0 000:725.051 JLINK_SetBPEx(Addr = 0x20000000, Type = 0xFFFFFFF2)
T0BF0 000:725.086 - 0.051ms returns 0x00000007
T0BF0 000:725.120 JLINK_Go()
T0BF0 000:725.182   CPU_ReadMem(4 bytes @ 0xE0001000)
T0BF0 000:727.731 - 2.641ms
T0BF0 000:727.783 JLINK_IsHalted()
T0BF0 000:728.172 - 0.412ms returns FALSE
T0BF0 000:728.215 JLINK_HasError()
T0BF0 000:729.435 JLINK_IsHalted()
T0BF0 000:729.873 - 0.459ms returns FALSE
T0BF0 000:729.915 JLINK_HasError()
T0BF0 000:731.564 JLINK_IsHalted()
T0BF0 000:732.342 - 0.797ms returns FALSE
T0BF0 000:732.381 JLINK_HasError()
T0BF0 000:733.567 JLINK_IsHalted()
T0BF0 000:735.630   CPU_ReadMem(2 bytes @ 0x20000000)
T0BF0 000:736.410 - 2.862ms returns TRUE
T0BF0 000:736.449 JLINK_ReadReg(R15 (PC))
T0BF0 000:736.482 - 0.047ms returns 0x20000000
T0BF0 000:736.514 JLINK_ClrBPEx(BPHandle = 0x00000007)
T0BF0 000:736.545 - 0.046ms returns 0x00
T0BF0 000:736.577 JLINK_ReadReg(R0)
T0BF0 000:736.609 - 0.047ms returns 0x00000000
T0BF0 000:737.099 JLINK_WriteMem(0x20000180, 0x280 Bytes, ...)
T0BF0 000:737.135   Data:  0C 00 2C 28 11 D1 9D F8 12 00 2F 49 81 F8 2C 00 ...
T0BF0 000:737.185   CPU_WriteMem(640 bytes @ 0x20000180)
T0BF0 000:739.924 - 2.845ms returns 0x280
T0BF0 000:739.965 JLINK_WriteMem(0x20000400, 0x180 Bytes, ...)
T0BF0 000:739.996   Data:  14 60 0C 7A 01 2C 04 D1 14 68 44 F0 20 04 14 60 ...
T0BF0 000:740.044   CPU_WriteMem(384 bytes @ 0x20000400)
T0BF0 000:741.984 - 2.066ms returns 0x180
T0BF0 000:742.055 JLINK_HasError()
T0BF0 000:742.175 JLINK_WriteReg(R0, 0x08000800)
T0BF0 000:742.216 - 0.055ms returns 0
T0BF0 000:742.247 JLINK_WriteReg(R1, 0x00000400)
T0BF0 000:742.276 - 0.043ms returns 0
T0BF0 000:742.306 JLINK_WriteReg(R2, 0x20000180)
T0BF0 000:742.335 - 0.042ms returns 0
T0BF0 000:742.365 JLINK_WriteReg(R3, 0x00000000)
T0BF0 000:742.393 - 0.042ms returns 0
T0BF0 000:742.423 JLINK_WriteReg(R4, 0x00000000)
T0BF0 000:742.452 - 0.042ms returns 0
T0BF0 000:742.481 JLINK_WriteReg(R5, 0x00000000)
T0BF0 000:742.510 - 0.042ms returns 0
T0BF0 000:742.539 JLINK_WriteReg(R6, 0x00000000)
T0BF0 000:742.568 - 0.042ms returns 0
T0BF0 000:742.598 JLINK_WriteReg(R7, 0x00000000)
T0BF0 000:742.626 - 0.042ms returns 0
T0BF0 000:742.656 JLINK_WriteReg(R8, 0x00000000)
T0BF0 000:742.685 - 0.042ms returns 0
T0BF0 000:742.715 JLINK_WriteReg(R9, 0x2000017C)
T0BF0 000:742.816 - 0.120ms returns 0
T0BF0 000:742.851 JLINK_WriteReg(R10, 0x00000000)
T0BF0 000:742.880 - 0.043ms returns 0
T0BF0 000:742.911 JLINK_WriteReg(R11, 0x00000000)
T0BF0 000:742.940 - 0.042ms returns 0
T0BF0 000:742.970 JLINK_WriteReg(R12, 0x00000000)
T0BF0 000:742.998 - 0.042ms returns 0
T0BF0 000:743.028 JLINK_WriteReg(R13 (SP), 0x20001000)
T0BF0 000:743.057 - 0.043ms returns 0
T0BF0 000:743.087 JLINK_WriteReg(R14, 0x20000001)
T0BF0 000:743.115 - 0.042ms returns 0
T0BF0 000:743.145 JLINK_WriteReg(R15 (PC), 0x20000108)
T0BF0 000:743.174 - 0.042ms returns 0
T0BF0 000:743.203 JLINK_WriteReg(XPSR, 0x01000000)
T0BF0 000:743.232 - 0.042ms returns 0
T0BF0 000:743.262 JLINK_WriteReg(MSP, 0x20001000)
T0BF0 000:743.290 - 0.042ms returns 0
T0BF0 000:743.319 JLINK_WriteReg(PSP, 0x20001000)
T0BF0 000:743.348 - 0.042ms returns 0
T0BF0 000:743.378 JLINK_WriteReg(CFBP, 0x00000000)
T0BF0 000:743.406 - 0.042ms returns 0
T0BF0 000:743.436 JLINK_SetBPEx(Addr = 0x20000000, Type = 0xFFFFFFF2)
T0BF0 000:743.467 - 0.044ms returns 0x00000008
T0BF0 000:743.497 JLINK_Go()
T0BF0 000:743.533   CPU_ReadMem(4 bytes @ 0xE0001000)
T0BF0 000:745.988 - 2.514ms
T0BF0 000:746.031 JLINK_IsHalted()
T0BF0 000:746.364 - 0.352ms returns FALSE
T0BF0 000:746.402 JLINK_HasError()
T0BF0 000:748.165 JLINK_IsHalted()
T0BF0 000:748.523 - 0.380ms returns FALSE
T0BF0 000:748.564 JLINK_HasError()
T0BF0 000:750.179 JLINK_IsHalted()
T0BF0 000:752.329   CPU_ReadMem(2 bytes @ 0x20000000)
T0BF0 000:752.701 - 2.543ms returns TRUE
T0BF0 000:752.741 JLINK_ReadReg(R15 (PC))
T0BF0 000:752.774 - 0.047ms returns 0x20000000
T0BF0 000:752.805 JLINK_ClrBPEx(BPHandle = 0x00000008)
T0BF0 000:752.836 - 0.046ms returns 0x00
T0BF0 000:752.868 JLINK_ReadReg(R0)
T0BF0 000:752.898 - 0.044ms returns 0x00000000
T0BF0 000:753.356 JLINK_WriteMem(0x20000180, 0x280 Bytes, ...)
T0BF0 000:753.391   Data:  01 13 DB 68 1B 0E 93 74 21 B9 C3 68 43 F0 20 03 ...
T0BF0 000:753.439   CPU_WriteMem(640 bytes @ 0x20000180)
T0BF0 000:756.067 - 2.732ms returns 0x280
T0BF0 000:756.107 JLINK_WriteMem(0x20000400, 0x180 Bytes, ...)
T0BF0 000:756.137   Data:  46 F8 27 50 CE 10 00 F1 20 05 55 F8 26 50 45 EA ...
T0BF0 000:756.185   CPU_WriteMem(384 bytes @ 0x20000400)
T0BF0 000:757.822 - 1.768ms returns 0x180
T0BF0 000:757.911 JLINK_HasError()
T0BF0 000:757.942 JLINK_WriteReg(R0, 0x08000C00)
T0BF0 000:757.974 - 0.045ms returns 0
T0BF0 000:758.034 JLINK_WriteReg(R1, 0x00000400)
T0BF0 000:758.064 - 0.071ms returns 0
T0BF0 000:758.121 JLINK_WriteReg(R2, 0x20000180)
T0BF0 000:758.150 - 0.042ms returns 0
T0BF0 000:758.180 JLINK_WriteReg(R3, 0x00000000)
T0BF0 000:758.208 - 0.042ms returns 0
T0BF0 000:758.238 JLINK_WriteReg(R4, 0x00000000)
T0BF0 000:758.266 - 0.042ms returns 0
T0BF0 000:758.296 JLINK_WriteReg(R5, 0x00000000)
T0BF0 000:758.324 - 0.042ms returns 0
T0BF0 000:758.354 JLINK_WriteReg(R6, 0x00000000)
T0BF0 000:758.382 - 0.042ms returns 0
T0BF0 000:758.412 JLINK_WriteReg(R7, 0x00000000)
T0BF0 000:758.440 - 0.042ms returns 0
T0BF0 000:758.470 JLINK_WriteReg(R8, 0x00000000)
T0BF0 000:758.498 - 0.042ms returns 0
T0BF0 000:758.528 JLINK_WriteReg(R9, 0x2000017C)
T0BF0 000:758.556 - 0.042ms returns 0
T0BF0 000:758.586 JLINK_WriteReg(R10, 0x00000000)
T0BF0 000:758.614 - 0.042ms returns 0
T0BF0 000:758.644 JLINK_WriteReg(R11, 0x00000000)
T0BF0 000:758.672 - 0.042ms returns 0
T0BF0 000:758.702 JLINK_WriteReg(R12, 0x00000000)
T0BF0 000:758.731 - 0.042ms returns 0
T0BF0 000:758.760 JLINK_WriteReg(R13 (SP), 0x20001000)
T0BF0 000:758.790 - 0.043ms returns 0
T0BF0 000:758.819 JLINK_WriteReg(R14, 0x20000001)
T0BF0 000:758.857 - 0.058ms returns 0
T0BF0 000:758.933 JLINK_WriteReg(R15 (PC), 0x20000108)
T0BF0 000:758.987 - 0.068ms returns 0
T0BF0 000:759.017 JLINK_WriteReg(XPSR, 0x01000000)
T0BF0 000:759.046 - 0.043ms returns 0
T0BF0 000:759.076 JLINK_WriteReg(MSP, 0x20001000)
T0BF0 000:759.104 - 0.042ms returns 0
T0BF0 000:759.134 JLINK_WriteReg(PSP, 0x20001000)
T0BF0 000:759.163 - 0.042ms returns 0
T0BF0 000:759.192 JLINK_WriteReg(CFBP, 0x00000000)
T0BF0 000:759.275 - 0.097ms returns 0
T0BF0 000:759.306 JLINK_SetBPEx(Addr = 0x20000000, Type = 0xFFFFFFF2)
T0BF0 000:759.336 - 0.044ms returns 0x00000009
T0BF0 000:759.366 JLINK_Go()
T0BF0 000:759.403   CPU_ReadMem(4 bytes @ 0xE0001000)
T0BF0 000:761.617 - 2.274ms
T0BF0 000:761.660 JLINK_IsHalted()
T0BF0 000:762.055 - 0.416ms returns FALSE
T0BF0 000:762.096 JLINK_HasError()
T0BF0 000:764.485 JLINK_IsHalted()
T0BF0 000:764.867 - 0.408ms returns FALSE
T0BF0 000:764.922 JLINK_HasError()
T0BF0 000:766.409 JLINK_IsHalted()
T0BF0 000:769.523   CPU_ReadMem(2 bytes @ 0x20000000)
T0BF0 000:770.003 - 3.621ms returns TRUE
T0BF0 000:770.055 JLINK_ReadReg(R15 (PC))
T0BF0 000:770.088 - 0.048ms returns 0x20000000
T0BF0 000:770.121 JLINK_ClrBPEx(BPHandle = 0x00000009)
T0BF0 000:770.152 - 0.045ms returns 0x00
T0BF0 000:770.185 JLINK_ReadReg(R0)
T0BF0 000:770.215 - 0.044ms returns 0x00000000
T0BF0 000:770.738 JLINK_WriteMem(0x20000180, 0x280 Bytes, ...)
T0BF0 000:770.779   Data:  3F 68 07 F0 0C 01 21 B1 04 29 05 D0 08 29 37 D1 ...
T0BF0 000:770.830   CPU_WriteMem(640 bytes @ 0x20000180)
T0BF0 000:773.935 - 3.297ms returns 0x280
T0BF0 000:774.069 JLINK_WriteMem(0x20000400, 0x180 Bytes, ...)
T0BF0 000:774.107   Data:  00 68 0E 49 08 40 0C 49 08 60 0D 48 09 1D 08 60 ...
T0BF0 000:774.227   CPU_WriteMem(384 bytes @ 0x20000400)
T0BF0 000:776.025 - 2.000ms returns 0x180
T0BF0 000:776.091 JLINK_HasError()
T0BF0 000:776.124 JLINK_WriteReg(R0, 0x08001000)
T0BF0 000:776.158 - 0.048ms returns 0
T0BF0 000:776.189 JLINK_WriteReg(R1, 0x00000400)
T0BF0 000:776.219 - 0.044ms returns 0
T0BF0 000:776.250 JLINK_WriteReg(R2, 0x20000180)
T0BF0 000:776.279 - 0.044ms returns 0
T0BF0 000:776.310 JLINK_WriteReg(R3, 0x00000000)
T0BF0 000:776.340 - 0.044ms returns 0
T0BF0 000:776.371 JLINK_WriteReg(R4, 0x00000000)
T0BF0 000:776.401 - 0.044ms returns 0
T0BF0 000:776.432 JLINK_WriteReg(R5, 0x00000000)
T0BF0 000:776.462 - 0.044ms returns 0
T0BF0 000:776.493 JLINK_WriteReg(R6, 0x00000000)
T0BF0 000:776.522 - 0.043ms returns 0
T0BF0 000:776.553 JLINK_WriteReg(R7, 0x00000000)
T0BF0 000:776.583 - 0.044ms returns 0
T0BF0 000:776.614 JLINK_WriteReg(R8, 0x00000000)
T0BF0 000:776.645 - 0.045ms returns 0
T0BF0 000:776.676 JLINK_WriteReg(R9, 0x2000017C)
T0BF0 000:776.706 - 0.045ms returns 0
T0BF0 000:776.737 JLINK_WriteReg(R10, 0x00000000)
T0BF0 000:776.767 - 0.046ms returns 0
T0BF0 000:776.801 JLINK_WriteReg(R11, 0x00000000)
T0BF0 000:776.832 - 0.045ms returns 0
T0BF0 000:776.863 JLINK_WriteReg(R12, 0x00000000)
T0BF0 000:776.893 - 0.044ms returns 0
T0BF0 000:776.924 JLINK_WriteReg(R13 (SP), 0x20001000)
T0BF0 000:776.954 - 0.045ms returns 0
T0BF0 000:776.985 JLINK_WriteReg(R14, 0x20000001)
T0BF0 000:777.015 - 0.044ms returns 0
T0BF0 000:777.046 JLINK_WriteReg(R15 (PC), 0x20000108)
T0BF0 000:777.075 - 0.044ms returns 0
T0BF0 000:777.107 JLINK_WriteReg(XPSR, 0x01000000)
T0BF0 000:777.136 - 0.044ms returns 0
T0BF0 000:777.167 JLINK_WriteReg(MSP, 0x20001000)
T0BF0 000:777.197 - 0.044ms returns 0
T0BF0 000:777.228 JLINK_WriteReg(PSP, 0x20001000)
T0BF0 000:777.258 - 0.045ms returns 0
T0BF0 000:777.290 JLINK_WriteReg(CFBP, 0x00000000)
T0BF0 000:777.319 - 0.044ms returns 0
T0BF0 000:777.351 JLINK_SetBPEx(Addr = 0x20000000, Type = 0xFFFFFFF2)
T0BF0 000:777.403 - 0.068ms returns 0x0000000A
T0BF0 000:777.436 JLINK_Go()
T0BF0 000:777.490   CPU_ReadMem(4 bytes @ 0xE0001000)
T0BF0 000:780.678 - 3.267ms
T0BF0 000:780.723 JLINK_IsHalted()
T0BF0 000:781.072 - 0.370ms returns FALSE
T0BF0 000:781.113 JLINK_HasError()
T0BF0 000:782.394 JLINK_IsHalted()
T0BF0 000:782.803 - 0.439ms returns FALSE
T0BF0 000:782.854 JLINK_HasError()
T0BF0 000:785.410 JLINK_IsHalted()
T0BF0 000:787.592   CPU_ReadMem(2 bytes @ 0x20000000)
T0BF0 000:788.082 - 2.711ms returns TRUE
T0BF0 000:788.144 JLINK_ReadReg(R15 (PC))
T0BF0 000:788.178 - 0.048ms returns 0x20000000
T0BF0 000:788.209 JLINK_ClrBPEx(BPHandle = 0x0000000A)
T0BF0 000:788.240 - 0.045ms returns 0x00
T0BF0 000:788.271 JLINK_ReadReg(R0)
T0BF0 000:788.354 - 0.101ms returns 0x00000000
T0BF0 000:789.591 JLINK_WriteMem(0x20000180, 0x280 Bytes, ...)
T0BF0 000:789.633   Data:  00 10 00 40 3C 00 00 20 21 B1 02 88 42 F0 80 02 ...
T0BF0 000:789.715   CPU_WriteMem(640 bytes @ 0x20000180)
T0BF0 000:792.184 - 2.623ms returns 0x280
T0BF0 000:792.235 JLINK_WriteMem(0x20000400, 0x180 Bytes, ...)
T0BF0 000:792.265   Data:  00 7F 00 D1 00 BF 13 88 0B 40 0B B1 01 20 00 E0 ...
T0BF0 000:792.316   CPU_WriteMem(384 bytes @ 0x20000400)
T0BF0 000:794.307 - 2.114ms returns 0x180
T0BF0 000:794.371 JLINK_HasError()
T0BF0 000:794.404 JLINK_WriteReg(R0, 0x08001400)
T0BF0 000:794.439 - 0.049ms returns 0
T0BF0 000:794.470 JLINK_WriteReg(R1, 0x00000400)
T0BF0 000:794.500 - 0.045ms returns 0
T0BF0 000:794.532 JLINK_WriteReg(R2, 0x20000180)
T0BF0 000:794.561 - 0.044ms returns 0
T0BF0 000:794.592 JLINK_WriteReg(R3, 0x00000000)
T0BF0 000:794.622 - 0.044ms returns 0
T0BF0 000:794.653 JLINK_WriteReg(R4, 0x00000000)
T0BF0 000:794.682 - 0.043ms returns 0
T0BF0 000:794.713 JLINK_WriteReg(R5, 0x00000000)
T0BF0 000:794.743 - 0.044ms returns 0
T0BF0 000:794.775 JLINK_WriteReg(R6, 0x00000000)
T0BF0 000:794.805 - 0.044ms returns 0
T0BF0 000:794.836 JLINK_WriteReg(R7, 0x00000000)
T0BF0 000:794.866 - 0.045ms returns 0
T0BF0 000:794.899 JLINK_WriteReg(R8, 0x00000000)
T0BF0 000:794.928 - 0.045ms returns 0
T0BF0 000:794.961 JLINK_WriteReg(R9, 0x2000017C)
T0BF0 000:794.993 - 0.047ms returns 0
T0BF0 000:795.026 JLINK_WriteReg(R10, 0x00000000)
T0BF0 000:795.057 - 0.047ms returns 0
T0BF0 000:795.089 JLINK_WriteReg(R11, 0x00000000)
T0BF0 000:795.118 - 0.043ms returns 0
T0BF0 000:795.148 JLINK_WriteReg(R12, 0x00000000)
T0BF0 000:795.177 - 0.043ms returns 0
T0BF0 000:795.207 JLINK_WriteReg(R13 (SP), 0x20001000)
T0BF0 000:795.237 - 0.043ms returns 0
T0BF0 000:795.267 JLINK_WriteReg(R14, 0x20000001)
T0BF0 000:795.295 - 0.042ms returns 0
T0BF0 000:795.325 JLINK_WriteReg(R15 (PC), 0x20000108)
T0BF0 000:795.354 - 0.043ms returns 0
T0BF0 000:795.384 JLINK_WriteReg(XPSR, 0x01000000)
T0BF0 000:795.413 - 0.043ms returns 0
T0BF0 000:795.443 JLINK_WriteReg(MSP, 0x20001000)
T0BF0 000:795.471 - 0.042ms returns 0
T0BF0 000:795.501 JLINK_WriteReg(PSP, 0x20001000)
T0BF0 000:795.529 - 0.042ms returns 0
T0BF0 000:795.559 JLINK_WriteReg(CFBP, 0x00000000)
T0BF0 000:795.588 - 0.042ms returns 0
T0BF0 000:795.618 JLINK_SetBPEx(Addr = 0x20000000, Type = 0xFFFFFFF2)
T0BF0 000:795.648 - 0.044ms returns 0x0000000B
T0BF0 000:795.678 JLINK_Go()
T0BF0 000:795.714   CPU_ReadMem(4 bytes @ 0xE0001000)
T0BF0 000:798.762 - 3.122ms
T0BF0 000:798.824 JLINK_IsHalted()
T0BF0 000:799.217 - 0.417ms returns FALSE
T0BF0 000:799.263 JLINK_HasError()
T0BF0 000:802.803 JLINK_IsHalted()
T0BF0 000:805.073   CPU_ReadMem(2 bytes @ 0x20000000)
T0BF0 000:805.529 - 2.747ms returns TRUE
T0BF0 000:805.570 JLINK_ReadReg(R15 (PC))
T0BF0 000:805.607 - 0.052ms returns 0x20000000
T0BF0 000:805.639 JLINK_ClrBPEx(BPHandle = 0x0000000B)
T0BF0 000:805.669 - 0.045ms returns 0x00
T0BF0 000:805.700 JLINK_ReadReg(R0)
T0BF0 000:805.730 - 0.046ms returns 0x00000000
T0BF0 000:806.210 JLINK_WriteMem(0x20000180, 0x280 Bytes, ...)
T0BF0 000:806.245   Data:  00 10 01 40 00 14 01 40 01 46 88 88 C0 F3 08 00 ...
T0BF0 000:806.294   CPU_WriteMem(640 bytes @ 0x20000180)
T0BF0 000:808.865 - 2.683ms returns 0x280
T0BF0 000:808.914 JLINK_WriteMem(0x20000400, 0x180 Bytes, ...)
T0BF0 000:808.945   Data:  90 F8 47 10 82 F8 47 10 90 F8 48 10 82 F8 48 10 ...
T0BF0 000:808.996   CPU_WriteMem(384 bytes @ 0x20000400)
T0BF0 000:811.043 - 2.152ms returns 0x180
T0BF0 000:811.087 JLINK_HasError()
T0BF0 000:811.123 JLINK_WriteReg(R0, 0x08001800)
T0BF0 000:811.164 - 0.056ms returns 0
T0BF0 000:811.196 JLINK_WriteReg(R1, 0x00000400)
T0BF0 000:811.228 - 0.047ms returns 0
T0BF0 000:811.260 JLINK_WriteReg(R2, 0x20000180)
T0BF0 000:811.290 - 0.045ms returns 0
T0BF0 000:811.321 JLINK_WriteReg(R3, 0x00000000)
T0BF0 000:811.351 - 0.044ms returns 0
T0BF0 000:811.382 JLINK_WriteReg(R4, 0x00000000)
T0BF0 000:811.411 - 0.044ms returns 0
T0BF0 000:811.492 JLINK_WriteReg(R5, 0x00000000)
T0BF0 000:811.526 - 0.049ms returns 0
T0BF0 000:811.558 JLINK_WriteReg(R6, 0x00000000)
T0BF0 000:811.587 - 0.044ms returns 0
T0BF0 000:811.618 JLINK_WriteReg(R7, 0x00000000)
T0BF0 000:811.648 - 0.044ms returns 0
T0BF0 000:811.679 JLINK_WriteReg(R8, 0x00000000)
T0BF0 000:811.708 - 0.044ms returns 0
T0BF0 000:811.740 JLINK_WriteReg(R9, 0x2000017C)
T0BF0 000:811.770 - 0.044ms returns 0
T0BF0 000:811.801 JLINK_WriteReg(R10, 0x00000000)
T0BF0 000:811.830 - 0.044ms returns 0
T0BF0 000:811.861 JLINK_WriteReg(R11, 0x00000000)
T0BF0 000:811.891 - 0.044ms returns 0
T0BF0 000:811.922 JLINK_WriteReg(R12, 0x00000000)
T0BF0 000:811.951 - 0.044ms returns 0
T0BF0 000:811.982 JLINK_WriteReg(R13 (SP), 0x20001000)
T0BF0 000:812.013 - 0.045ms returns 0
T0BF0 000:812.044 JLINK_WriteReg(R14, 0x20000001)
T0BF0 000:812.073 - 0.044ms returns 0
T0BF0 000:812.104 JLINK_WriteReg(R15 (PC), 0x20000108)
T0BF0 000:812.134 - 0.044ms returns 0
T0BF0 000:812.164 JLINK_WriteReg(XPSR, 0x01000000)
T0BF0 000:812.194 - 0.044ms returns 0
T0BF0 000:812.225 JLINK_WriteReg(MSP, 0x20001000)
T0BF0 000:812.254 - 0.044ms returns 0
T0BF0 000:812.285 JLINK_WriteReg(PSP, 0x20001000)
T0BF0 000:812.315 - 0.044ms returns 0
T0BF0 000:812.345 JLINK_WriteReg(CFBP, 0x00000000)
T0BF0 000:812.375 - 0.043ms returns 0
T0BF0 000:812.406 JLINK_SetBPEx(Addr = 0x20000000, Type = 0xFFFFFFF2)
T0BF0 000:812.436 - 0.045ms returns 0x0000000C
T0BF0 000:812.467 JLINK_Go()
T0BF0 000:812.503   CPU_ReadMem(4 bytes @ 0xE0001000)
T0BF0 000:815.828 - 3.382ms
T0BF0 000:815.868 JLINK_IsHalted()
T0BF0 000:816.205 - 0.357ms returns FALSE
T0BF0 000:816.245 JLINK_HasError()
T0BF0 000:818.007 JLINK_IsHalted()
T0BF0 000:818.403 - 0.416ms returns FALSE
T0BF0 000:818.443 JLINK_HasError()
T0BF0 000:819.742 JLINK_IsHalted()
T0BF0 000:821.771   CPU_ReadMem(2 bytes @ 0x20000000)
T0BF0 000:822.154 - 2.434ms returns TRUE
T0BF0 000:822.196 JLINK_ReadReg(R15 (PC))
T0BF0 000:822.228 - 0.047ms returns 0x20000000
T0BF0 000:822.260 JLINK_ClrBPEx(BPHandle = 0x0000000C)
T0BF0 000:822.290 - 0.045ms returns 0x00
T0BF0 000:822.321 JLINK_ReadReg(R0)
T0BF0 000:822.351 - 0.044ms returns 0x00000000
T0BF0 000:822.822 JLINK_WriteMem(0x20000180, 0x280 Bytes, ...)
T0BF0 000:822.857   Data:  90 F8 77 10 82 F8 77 10 90 F8 78 10 82 F8 78 10 ...
T0BF0 000:822.905   CPU_WriteMem(640 bytes @ 0x20000180)
T0BF0 000:825.492 - 2.697ms returns 0x280
T0BF0 000:825.542 JLINK_WriteMem(0x20000400, 0x180 Bytes, ...)
T0BF0 000:825.573   Data:  BB 20 90 F8 BC 20 81 F8 BC 20 90 F8 BD 20 81 F8 ...
T0BF0 000:825.624   CPU_WriteMem(384 bytes @ 0x20000400)
T0BF0 000:827.298 - 1.780ms returns 0x180
T0BF0 000:827.344 JLINK_HasError()
T0BF0 000:827.378 JLINK_WriteReg(R0, 0x08001C00)
T0BF0 000:827.411 - 0.047ms returns 0
T0BF0 000:827.443 JLINK_WriteReg(R1, 0x00000400)
T0BF0 000:827.473 - 0.044ms returns 0
T0BF0 000:827.505 JLINK_WriteReg(R2, 0x20000180)
T0BF0 000:827.535 - 0.044ms returns 0
T0BF0 000:827.567 JLINK_WriteReg(R3, 0x00000000)
T0BF0 000:827.597 - 0.044ms returns 0
T0BF0 000:827.629 JLINK_WriteReg(R4, 0x00000000)
T0BF0 000:827.658 - 0.044ms returns 0
T0BF0 000:827.690 JLINK_WriteReg(R5, 0x00000000)
T0BF0 000:827.720 - 0.044ms returns 0
T0BF0 000:827.752 JLINK_WriteReg(R6, 0x00000000)
T0BF0 000:827.781 - 0.044ms returns 0
T0BF0 000:827.813 JLINK_WriteReg(R7, 0x00000000)
T0BF0 000:827.843 - 0.044ms returns 0
T0BF0 000:827.875 JLINK_WriteReg(R8, 0x00000000)
T0BF0 000:827.904 - 0.044ms returns 0
T0BF0 000:827.936 JLINK_WriteReg(R9, 0x2000017C)
T0BF0 000:827.965 - 0.044ms returns 0
T0BF0 000:827.997 JLINK_WriteReg(R10, 0x00000000)
T0BF0 000:828.027 - 0.044ms returns 0
T0BF0 000:828.059 JLINK_WriteReg(R11, 0x00000000)
T0BF0 000:828.088 - 0.043ms returns 0
T0BF0 000:828.120 JLINK_WriteReg(R12, 0x00000000)
T0BF0 000:828.149 - 0.043ms returns 0
T0BF0 000:828.181 JLINK_WriteReg(R13 (SP), 0x20001000)
T0BF0 000:828.212 - 0.045ms returns 0
T0BF0 000:828.244 JLINK_WriteReg(R14, 0x20000001)
T0BF0 000:828.273 - 0.044ms returns 0
T0BF0 000:828.374 JLINK_WriteReg(R15 (PC), 0x20000108)
T0BF0 000:828.409 - 0.050ms returns 0
T0BF0 000:828.442 JLINK_WriteReg(XPSR, 0x01000000)
T0BF0 000:828.472 - 0.044ms returns 0
T0BF0 000:828.504 JLINK_WriteReg(MSP, 0x20001000)
T0BF0 000:828.535 - 0.046ms returns 0
T0BF0 000:828.569 JLINK_WriteReg(PSP, 0x20001000)
T0BF0 000:828.599 - 0.044ms returns 0
T0BF0 000:828.631 JLINK_WriteReg(CFBP, 0x00000000)
T0BF0 000:828.661 - 0.044ms returns 0
T0BF0 000:828.693 JLINK_SetBPEx(Addr = 0x20000000, Type = 0xFFFFFFF2)
T0BF0 000:828.724 - 0.045ms returns 0x0000000D
T0BF0 000:828.756 JLINK_Go()
T0BF0 000:828.792   CPU_ReadMem(4 bytes @ 0xE0001000)
T0BF0 000:831.273 - 2.538ms
T0BF0 000:831.316 JLINK_IsHalted()
T0BF0 000:831.608 - 0.313ms returns FALSE
T0BF0 000:831.651 JLINK_HasError()
T0BF0 000:833.035 JLINK_IsHalted()
T0BF0 000:833.769 - 0.764ms returns FALSE
T0BF0 000:833.854 JLINK_HasError()
T0BF0 000:835.771 JLINK_IsHalted()
T0BF0 000:838.022   CPU_ReadMem(2 bytes @ 0x20000000)
T0BF0 000:838.380 - 2.629ms returns TRUE
T0BF0 000:838.420 JLINK_ReadReg(R15 (PC))
T0BF0 000:838.452 - 0.046ms returns 0x20000000
T0BF0 000:838.484 JLINK_ClrBPEx(BPHandle = 0x0000000D)
T0BF0 000:838.514 - 0.045ms returns 0x00
T0BF0 000:838.545 JLINK_ReadReg(R0)
T0BF0 000:838.575 - 0.044ms returns 0x00000000
T0BF0 000:839.054 JLINK_WriteMem(0x20000180, 0x280 Bytes, ...)
T0BF0 000:839.089   Data:  EB 20 90 F8 EC 20 81 F8 EC 20 90 F8 ED 20 81 F8 ...
T0BF0 000:839.137   CPU_WriteMem(640 bytes @ 0x20000180)
T0BF0 000:841.757 - 2.727ms returns 0x280
T0BF0 000:841.801 JLINK_WriteMem(0x20000400, 0x180 Bytes, ...)
T0BF0 000:841.831   Data:  2B 21 81 F8 2B 21 90 F8 2C 21 81 F8 2C 21 90 F8 ...
T0BF0 000:841.881   CPU_WriteMem(384 bytes @ 0x20000400)
T0BF0 000:844.024 - 2.247ms returns 0x180
T0BF0 000:844.069 JLINK_HasError()
T0BF0 000:844.102 JLINK_WriteReg(R0, 0x08002000)
